
**** 11/02/17 18:28:26 *********** Evaluation PSpice (Nov 1999) **************

 * D:\INGEGNERIA\iBacchi\Microelectronics\PSpice_Various_Schematics\CMOS_with_load.sch


 ****     CIRCUIT DESCRIPTION


******************************************************************************




* Schematics Version 9.1 - Web Update 1
* Thu Nov 02 18:28:23 2017



** Analysis setup **
.tran 0ns 4ns 0 1p


* From [PSPICE NETLIST] section of pspiceev.ini:
.lib "nom.lib"
.lib "C:\Program Files\OrCAD_Demo\Capture\Library\Pspice\uwind.lib"

.INC "CMOS_with_load.net"

**** INCLUDING CMOS_with_load.net ****
* Schematics Netlist *



V_Vdd         $N_0001 0 1.2V
M_M2         $N_0003 $N_0002 $N_0001 $N_0001 MbreakP           
M_M1         $N_0003 $N_0002 0 0 MbreakN           
C_Cload         0 $N_0003  1n  
V_Vin         $N_0002 0 DC 0 AC 0
+PULSE 0 1.2 0 10p 10p 250p 500p

**** RESUMING CMOS_with_load.cir ****
.INC "CMOS_with_load.als"



**** INCLUDING CMOS_with_load.als ****
* Schematics Aliases *

.ALIASES
V_Vdd           Vdd(+=$N_0001 -=0 )
M_M2            M2(d=$N_0003 g=$N_0002 s=$N_0001 b=$N_0001 )
M_M1            M1(d=$N_0003 g=$N_0002 s=0 b=0 )
C_Cload          Cload(1=0 2=$N_0003 )
V_Vin           Vin(+=$N_0002 -=0 )
.ENDALIASES


**** RESUMING CMOS_with_load.cir ****
.probe


.END

**** 11/02/17 18:28:26 *********** Evaluation PSpice (Nov 1999) **************

 * D:\INGEGNERIA\iBacchi\Microelectronics\PSpice_Various_Schematics\CMOS_with_load.sch


 ****     MOSFET MODEL PARAMETERS


******************************************************************************




               MbreakP         MbreakN         
               PMOS            NMOS            
       LEVEL    1               1            
           L  100.000000E-06  100.000000E-06 
           W  100.000000E-06  100.000000E-06 
         VTO    0               0            
          KP   20.000000E-06   20.000000E-06 
       GAMMA    0               0            
         PHI     .6              .6          
      LAMBDA    0               0            
          IS   10.000000E-15   10.000000E-15 
          JS    0               0            
          PB     .8              .8          
        PBSW     .8              .8          
          CJ    0               0            
        CJSW    0               0            
        CGSO    0               0            
        CGDO    0               0            
        CGBO    0               0            
         TOX    0               0            
          XJ    0               0            
       UCRIT   10.000000E+03   10.000000E+03 
      DIOMOD    1               1            
         VFB    0               0            
        LETA    0               0            
        WETA    0               0            
          U0    0               0            
        TEMP    0               0            
         VDD    0               0            
       XPART    0               0            


**** 11/02/17 18:28:26 *********** Evaluation PSpice (Nov 1999) **************

 * D:\INGEGNERIA\iBacchi\Microelectronics\PSpice_Various_Schematics\CMOS_with_load.sch


 ****     INITIAL TRANSIENT SOLUTION       TEMPERATURE =   27.000 DEG C


******************************************************************************



 NODE   VOLTAGE     NODE   VOLTAGE     NODE   VOLTAGE     NODE   VOLTAGE


($N_0001)    1.2000                   ($N_0002)    0.0000                       

($N_0003)    1.2000                   




    VOLTAGE SOURCE CURRENTS
    NAME         CURRENT

    V_Vdd       -1.210E-12
    V_Vin        0.000E+00

    TOTAL POWER DISSIPATION   1.45E-12  WATTS



          JOB CONCLUDED

          TOTAL JOB TIME             .22
